
**** 01/06/25 21:04:39 ***** PSpice 23.1.0 (18 July 2024) ***** ID# 0 ********

 ** Profile: "SCHEMATIC1-laserSight"  [ c:\users\corbb\documents\workspace\lazergun\circuit\lasergun2-pspicefiles\schematic1\lasersig


 ****     CIRCUIT DESCRIPTION


******************************************************************************




** Creating circuit file "laserSight.cir" 
** WARNING: THIS AUTOMATICALLY GENERATED FILE MAY BE OVERWRITTEN BY SUBSEQUENT SIMULATIONS

*Libraries: 
* Profile Libraries :
* Local Libraries :
* From [PSPICE NETLIST] section of C:\Users\corbb\AppData\Roaming\SPB_Data\cdssetup\OrCAD_PSpice\23.1.0\PSpice.ini file:
.lib "C:\Users\corbb\Documents\School\ECE_2280\HW\customComponents\CD4007.lib" 
.lib "nom.lib" 

*Analysis directives: 
.TRAN  0 1s 0 
.OPTIONS ADVCONV
.PROBE64 V(alias(*)) I(alias(*)) W(alias(*)) D(alias(*)) NOISE(alias(*)) 
.INC "..\SCHEMATIC1.net" 



**** INCLUDING SCHEMATIC1.net ****
* source LASERGUN2
V_Vin_1         N06264 0 5Vdc
R_internal         N06324 N06260  33k TC=0,0 
V_lightSignal         N38821 0 DC 0Vdc AC 1Vac 
R_hitSensorModulator         N06260 N06264  300 TC=0,0 
R_RX0_1         0 N06324  10Meg TC=0,0 
R_3V3         N19842 N111360  0 TC=0,0 
------------------------------$
WARNING -- Zero resistance is not allowed and is internally replaced with 1.000e-12 Ohms.
V_3V87         N111360 0 3.3V
V_3V89         N114740 0 0Vdc
R_CLK         0 N114740  0 TC=0,0 
-------------------------$
WARNING -- Zero resistance is not allowed and is internally replaced with 1.000e-12 Ohms.
V_3V91         N115400 0 0Vdc
R_SD0         0 N115400  0 TC=0,0 
-------------------------$
WARNING -- Zero resistance is not allowed and is internally replaced with 1.000e-12 Ohms.
V_3V93         N116060 0 0Vdc
R_SD1         0 N116060  0 TC=0,0 
-------------------------$
WARNING -- Zero resistance is not allowed and is internally replaced with 1.000e-12 Ohms.
V_3V95         N116720 0 0Vdc
R_D0         0 N116720  0 TC=0,0 
------------------------$
WARNING -- Zero resistance is not allowed and is internally replaced with 1.000e-12 Ohms.
R_D15         N20932 N117380  0 TC=0,0 
------------------------------$
WARNING -- Zero resistance is not allowed and is internally replaced with 1.000e-12 Ohms.
V_3V97         N117380 0 3.3Vdc
V_3V105         N120480 0 0Vdc
V_3V103         N120100 0 0Vdc
V_3V101         N119720 0 3.3Vdc
R_RX2         0 N120100  0 TC=0,0 
-------------------------$
WARNING -- Zero resistance is not allowed and is internally replaced with 1.000e-12 Ohms.
R_D5         N21680 N120860  0 TC=0,0 
-----------------------------$
WARNING -- Zero resistance is not allowed and is internally replaced with 1.000e-12 Ohms.
R_D18         N20357 N121240  0 TC=0,0 
------------------------------$
WARNING -- Zero resistance is not allowed and is internally replaced with 1.000e-12 Ohms.
V_3V109         N121240 0 3.3Vdc
R_D4         N20918 N119720  0 TC=0,0 
-----------------------------$
WARNING -- Zero resistance is not allowed and is internally replaced with 1.000e-12 Ohms.
R_TX2         0 N120480  0 TC=0,0 
-------------------------$
WARNING -- Zero resistance is not allowed and is internally replaced with 1.000e-12 Ohms.
R_D2         N20925 N119340  0 TC=0,0 
-----------------------------$
WARNING -- Zero resistance is not allowed and is internally replaced with 1.000e-12 Ohms.
V_3V99         N119340 0 3.3Vdc
V_3V107         N120860 0 3.3Vdc
R_D23         0 N125200  0 TC=0,0 
-------------------------$
WARNING -- Zero resistance is not allowed and is internally replaced with 1.000e-12 Ohms.
R_D19         N20364 N123300  0 TC=0,0 
------------------------------$
WARNING -- Zero resistance is not allowed and is internally replaced with 1.000e-12 Ohms.
R_D21         N20371 N123680  0 TC=0,0 
------------------------------$
WARNING -- Zero resistance is not allowed and is internally replaced with 1.000e-12 Ohms.
V_3V121         N125200 0 0Vdc
V_3V113         N123680 0 3.3Vdc
V_3V119         N124820 0 0Vdc
V_3V115         N124060 0 0Vdc
V_3V117         N124440 0 3.3Vdc
V_3V111         N123300 0 3.3Vdc
R_RX0         N16668 N124060  10Meg TC=0,0 
R_TX0         N16376 N124440  0 TC=0,0 
------------------------------$
WARNING -- Zero resistance is not allowed and is internally replaced with 1.000e-12 Ohms.
R_D22         0 N124820  0 TC=0,0 
-------------------------$
WARNING -- Zero resistance is not allowed and is internally replaced with 1.000e-12 Ohms.
V_3V153         N136080 0 0Vdc
R_EN         0 N136840  0 TC=0,0 
------------------------$
WARNING -- Zero resistance is not allowed and is internally replaced with 1.000e-12 Ohms.
V_3V123         N130380 0 6Vdc
V_3V151         N135700 0 0Vdc
V_3V127         N131140 0 0Vdc
R_D34         N19443 N135700  10Meg TC=0,0 
V_3V143         N134180 0 3.3Vac
R_D14         0 N133040  0 TC=0,0 
-------------------------$
WARNING -- Zero resistance is not allowed and is internally replaced with 1.000e-12 Ohms.
V_3V137         N133040 0 0Vdc
R_D26         0 N133800  0 TC=0,0 
-------------------------$
WARNING -- Zero resistance is not allowed and is internally replaced with 1.000e-12 Ohms.
V_3V155         N136460 0 0Vdc
V_3V129         N131520 0 0Vdc
V_3V157         N136840 0 0Vdc
V_3V149         N135320 0 0Vdc
R_D27         0 N133420  0 TC=0,0 
-------------------------$
WARNING -- Zero resistance is not allowed and is internally replaced with 1.000e-12 Ohms.
V_3V133         N132280 0 0Vdc
R_SD3         0 N131520  0 TC=0,0 
-------------------------$
WARNING -- Zero resistance is not allowed and is internally replaced with 1.000e-12 Ohms.
V_3V145         N134560 0 0Vdc
R_D33         0 N134560  0 TC=0,0 
-------------------------$
WARNING -- Zero resistance is not allowed and is internally replaced with 1.000e-12 Ohms.
R_D13         0 N132280  0 TC=0,0 
-------------------------$
WARNING -- Zero resistance is not allowed and is internally replaced with 1.000e-12 Ohms.
V_3V135         N132660 0 0Vdc
R_D12         0 N132660  0 TC=0,0 
-------------------------$
WARNING -- Zero resistance is not allowed and is internally replaced with 1.000e-12 Ohms.
R_SD2         0 N131900  0 TC=0,0 
-------------------------$
WARNING -- Zero resistance is not allowed and is internally replaced with 1.000e-12 Ohms.
V_3V141         N133800 0 0Vdc
R_D32         N19471 N134940  10Meg TC=0,0 
R_VIN         N17421 N130380  0 TC=0,0 
------------------------------$
WARNING -- Zero resistance is not allowed and is internally replaced with 1.000e-12 Ohms.
R_D35         N19450 N135320  10Meg TC=0,0 
R_VN         N19231 N136080  10Meg TC=0,0 
V_3V139         N133420 0 0Vdc
V_3V131         N131900 0 0Vdc
R_VP         N19238 N136460  10Meg TC=0,0 
R_D25         N21023 N134180  0 TC=0,0 
------------------------------$
WARNING -- Zero resistance is not allowed and is internally replaced with 1.000e-12 Ohms.
R_CMD         0 N131140  0 TC=0,0 
-------------------------$
WARNING -- Zero resistance is not allowed and is internally replaced with 1.000e-12 Ohms.
V_3V147         N134940 0 0Vdc
R_fireDiodeModulator1         N159661 N16376  100 TC=0,0 
X_Q2         N17847 N17829 N17421 awb2n3906 PARAMS:                            
+                 
R_currentModulator         N17829 0  51 TC=0,0 
X_Qref1         N17829 N17829 N17421 awb2n3906 PARAMS:                         
+                    
X_trigger         N19231 N19842 Sw_tClose PARAMS: tClose=0 ttran=1u
+  Rclosed=0.01 Ropen=1Meg
X_Reload         N19238 N19842 Sw_tClose PARAMS: tClose=0 ttran=1u Rclosed=0.01
+  Ropen=1Meg
X_stealthM         N19443 N19842 Sw_tClose PARAMS: tClose=0 ttran=1u
+  Rclosed=0.01 Ropen=1Meg
X_cWeapon         N19450 N19842 Sw_tClose PARAMS: tClose=0 ttran=1u
+  Rclosed=0.01 Ropen=1Meg
X_cTeam         N19471 N19842 Sw_tClose PARAMS: tClose=0 ttran=1u Rclosed=0.01
+  Ropen=1Meg
R_D36         N202731 N20357  1k TC=0,0 
R_D37         N203091 N20364  1k TC=0,0 
R_D38         N203451 N20371  1k TC=0,0 
R_speaker         N21023 0  100k TC=0,0 
R_motor         N21680 0  100k TC=0,0 
X_Qref         N25783 N25783 N25709 awb2n3906 PARAMS:                          
+                   
X_Q1         N25799 N25783 N25709 awb2n3906 PARAMS:                            
+                 
R_R5         N25783 0  51 TC=0,0 
V_3V158         N25709 0 6Vdc
R_fireDiodeModulator         N26191 N26342  100 TC=0,0 
V_Vin_2         N26342 0 6Vdc
D_fireDiode         N26191 0 Dbreak 
D_health1R         N20918 0 Dbreak 
D_health2R         N20925 0 Dbreak 
D_health3R         N20932 0 Dbreak 
D_health3L         N20932 0 Dbreak 
D_health2L         N20925 0 Dbreak 
D_health1L         N20918 0 Dbreak 
D_fireDiode1         N159661 0 Dbreak 
D_teamLED-R         N203451 0 Dbreak 
D_teamLED-G         N203091 0 Dbreak 
D_teamLED-B         N202731 0 Dbreak 
D_laserDiode1         N17847 0 Dbreak 
R_hitSensorModulator1         N35327 N17421  300 TC=0,0 
V_lightSignal1         N38498 0 DC 0Vdc AC 1Vac 
R_internal1         N16668 N35327  33k TC=0,0 
X_hitSensor1         N16668 N38498 0 awb2n3904 PARAMS:                         
+                    
X_hitSensor         N06324 N38821 0 awb2n3904 PARAMS:                          
+                   
D_laserDiode         N25799 0 Dbreak 

**** RESUMING laserSight.cir ****
.END

**** 01/06/25 21:04:39 ***** PSpice 23.1.0 (18 July 2024) ***** ID# 0 ********

 ** Profile: "SCHEMATIC1-laserSight"  [ c:\users\corbb\documents\workspace\lazergun\circuit\lasergun2-pspicefiles\schematic1\lasersig


 ****     Diode MODEL PARAMETERS


******************************************************************************




               Dbreak          
          IS   10.000000E-15 
          RS     .1          
         CJO  100.000000E-15 


**** 01/06/25 21:04:39 ***** PSpice 23.1.0 (18 July 2024) ***** ID# 0 ********

 ** Profile: "SCHEMATIC1-laserSight"  [ c:\users\corbb\documents\workspace\lazergun\circuit\lasergun2-pspicefiles\schematic1\lasersig


 ****     BJT MODEL PARAMETERS


******************************************************************************




               X_Q2.model7     X_Qref1.model7  X_Qref.model7   X_Q1.model7     
               PNP             PNP             PNP             PNP             
       LEVEL    1               1               1               1            
          IS  218.880000E-15  218.880000E-15  218.880000E-15  218.880000E-15 
          EG    1.11            1.11            1.11            1.11         
          BF  200             200             200             200            
          NF    1.221           1.221           1.221           1.221        
         VAF   50              50              50              50            
         IKF     .15             .15             .15             .15         
         ISE    2.364000E-12    2.364000E-12    2.364000E-12    2.364000E-12 
          NE    2.155           2.155           2.155           2.155        
          BR    4.68            4.68            4.68            4.68         
          NR    1.221           1.221           1.221           1.221        
         VAR  500             500             500             500            
          NC    1               1               1               1            
         ISS    0               0               0               0            
          RB   12              12              12              12            
         RBM   12              12              12              12            
          RE     .1              .1              .1              .1          
          RC    1.5             1.5             1.5             1.5          
         CJE    6.250000E-12    6.250000E-12    6.250000E-12    6.250000E-12 
         VJE     .916            .916            .916            .916        
         MJE     .3898           .3898           .3898           .3898       
         CJC    6.600000E-12    6.600000E-12    6.600000E-12    6.600000E-12 
         VJC    1.67            1.67            1.67            1.67         
         MJC     .4065           .4065           .4065           .4065       
        XCJC     .5              .5              .5              .5          
         CJS    0               0               0               0            
         VJS     .7              .7              .7              .7          
         MJS     .5              .5              .5              .5          
          TF  361.720000E-12  361.720000E-12  361.720000E-12  361.720000E-12 
         XTF   21              21              21              21            
         VTF    4.7             4.7             4.7             4.7          
         ITF     .26             .26             .26             .26         
          TR   19.920000E-09   19.920000E-09   19.920000E-09   19.920000E-09 
         XTB    1.7             1.7             1.7             1.7          
          KF    0               0               0               0            
          AF    1               1               1               1            
          CN    2.2             2.2             2.2             2.2          
           D     .52             .52             .52             .52         


               X_hitSensor1.model4 
               NPN             
       LEVEL    1            
          IS  172.800000E-18 
          EG    1.206        
          BF  254.395        
          NF     .85         
         VAF   10            
         IKF     .016374     
         ISE    9.974460E-15 
          NE    1.20863      
          BR     .1          
          NR     .891964     
         VAR    7.74046      
         IKR     .163741     
         ISC    9.974460E-15 
          NC    2.84343      
         ISS    0            
          RB   28.3394       
         RBM     .01         
         IRB     .01         
          RE    1.339110E-03 
          RC    2.08353      
         CJE    4.566140E-12 
         VJE     .4          
         MJE     .245712     
         CJC    3.724850E-12 
         VJC     .4          
         MJC     .236002     
        XCJC     .8          
         CJS    0            
         VJS     .75         
         MJS     .5          
          FC     .519152     
          TF  481.412000E-12 
         XTF     .9628       
         VTF    9.52193      
         ITF     .011333     
          TR    1.303990E-06 
         XTB    1.20888      
         XTI    1.34879      
          KF    0            
          AF    1            
          CN    2.42         
           D     .87         


               X_hitSensor.model4 
               NPN             
       LEVEL    1            
          IS  172.800000E-18 
          EG    1.206        
          BF  254.395        
          NF     .85         
         VAF   10            
         IKF     .016374     
         ISE    9.974460E-15 
          NE    1.20863      
          BR     .1          
          NR     .891964     
         VAR    7.74046      
         IKR     .163741     
         ISC    9.974460E-15 
          NC    2.84343      
         ISS    0            
          RB   28.3394       
         RBM     .01         
         IRB     .01         
          RE    1.339110E-03 
          RC    2.08353      
         CJE    4.566140E-12 
         VJE     .4          
         MJE     .245712     
         CJC    3.724850E-12 
         VJC     .4          
         MJC     .236002     
        XCJC     .8          
         CJS    0            
         VJS     .75         
         MJS     .5          
          FC     .519152     
          TF  481.412000E-12 
         XTF     .9628       
         VTF    9.52193      
         ITF     .011333     
          TR    1.303990E-06 
         XTB    1.20888      
         XTI    1.34879      
          KF    0            
          AF    1            
          CN    2.42         
           D     .87         


**** 01/06/25 21:04:39 ***** PSpice 23.1.0 (18 July 2024) ***** ID# 0 ********

 ** Profile: "SCHEMATIC1-laserSight"  [ c:\users\corbb\documents\workspace\lazergun\circuit\lasergun2-pspicefiles\schematic1\lasersig


 ****     Voltage Controlled Switch MODEL PARAMETERS


******************************************************************************




               X_trigger.Smod  X_Reload.Smod   X_stealthM.Smod X_cWeapon.Smod  
         RON     .01             .01             .01             .01         
        ROFF    1.000000E+06    1.000000E+06    1.000000E+06    1.000000E+06 
         VON    1               1               1               1            
        VOFF    0               0               0               0            


               X_cTeam.Smod    
         RON     .01         
        ROFF    1.000000E+06 
         VON    1            
        VOFF    0            


**** 01/06/25 21:04:39 ***** PSpice 23.1.0 (18 July 2024) ***** ID# 0 ********

 ** Profile: "SCHEMATIC1-laserSight"  [ c:\users\corbb\documents\workspace\lazergun\circuit\lasergun2-pspicefiles\schematic1\lasersig


 ****     INITIAL TRANSIENT SOLUTION       TEMPERATURE =   27.000 DEG C


******************************************************************************



 NODE   VOLTAGE     NODE   VOLTAGE     NODE   VOLTAGE     NODE   VOLTAGE


(N06260)    4.9999 (N06264)    5.0000 (N06324)    4.9834 (N16376)    3.3000     

(N16668)    5.9801 (N17421)    6.0000 (N17829)    5.1164 (N17847)     .7863     

(N19231)    3.0000 (N19238)    3.0000 (N19443)    3.0000 (N19450)    3.0000     

(N19471)    3.0000 (N19842)    3.3000 (N20357)    3.3000 (N20364)    3.3000     

(N20371)    3.3000 (N20918)    3.3000 (N20925)    3.3000 (N20932)    3.3000     

(N21023)    3.3000 (N21680)    3.3000 (N25709)    6.0000 (N25783)    5.1164     

(N25799)     .7863 (N26191)     .7627 (N26342)    6.0000 (N35327)    5.9998     

(N38498)    0.0000 (N38821)    0.0000 (N111360)    3.3000                       

(N114740)    0.0000                   (N115400)    0.0000                       

(N116060)    0.0000                   (N116720)    0.0000                       

(N117380)    3.3000                   (N119340)    3.3000                       

(N119720)    3.3000                   (N120100)    0.0000                       

(N120480)    0.0000                   (N120860)    3.3000                       

(N121240)    3.3000                   (N123300)    3.3000                       

(N123680)    3.3000                   (N124060)    0.0000                       

(N124440)    3.3000                   (N124820)    0.0000                       

(N125200)    0.0000                   (N130380)    6.0000                       

(N131140)    0.0000                   (N131520)    0.0000                       

(N131900)    0.0000                   (N132280)    0.0000                       

(N132660)    0.0000                   (N133040)    0.0000                       

(N133420)    0.0000                   (N133800)    0.0000                       

(N134180)    3.3000                   (N134560)    0.0000                       

(N134940)    0.0000                   (N135320)    0.0000                       

(N135700)    0.0000                   (N136080)    0.0000                       

(N136460)    0.0000                   (N136840)    0.0000                       

(N159661)     .7415                   (N202731)     .6803                       

(N203091)     .6803                   (N203451)     .6803                       

